(1664353635.667524) vcan0 000001F5#0000000000000000
(1664353635.667539) vcan0 000001E7#00000000
(1664353635.667542) vcan0 0000014A#0000000000000000
(1664353635.683394) vcan0 000001F5#0000000000000000
(1664353635.683411) vcan0 000001E7#00000000
(1664353635.684482) vcan0 0000014A#0000000000000000
(1664353635.698222) vcan0 000001F5#0000000000000000
(1664353635.698239) vcan0 000001E7#00000000
(1664353635.699295) vcan0 0000014A#0000000000000000
(1664353635.716164) vcan0 000001F5#0000000000000000
(1664353635.716184) vcan0 000001E7#00000000
(1664353635.716186) vcan0 0000014A#0000000000000000
(1664353635.730956) vcan0 000001F5#0000000000000000
(1664353635.730972) vcan0 000001E7#00000000
(1664353635.730974) vcan0 0000014A#0000000000000000
(1664353635.747853) vcan0 000001F5#0000000000000000
(1664353635.747868) vcan0 000001E7#00000000
(1664353635.747870) vcan0 0000014A#0000000000000000
(1664353635.763663) vcan0 000001F5#0000000000000000
(1664353635.763677) vcan0 000001E7#00000000
(1664353635.763680) vcan0 0000014A#0000000000000000
(1664353635.779497) vcan0 000001F5#0000000000000000
(1664353635.779509) vcan0 000001E7#00000000
(1664353635.780565) vcan0 0000014A#0000000000000000
(1664353635.796387) vcan0 000001F5#0000000000000000
(1664353635.796400) vcan0 000001E7#00000000
(1664353635.796402) vcan0 0000014A#0000000000000000
(1664353635.811179) vcan0 000001F5#0000000000000000
(1664353635.811192) vcan0 000001E7#00000000
(1664353635.811194) vcan0 0000014A#0000000000000000
(1664353635.830244) vcan0 000001F5#0000000000000000
(1664353635.830275) vcan0 000001E7#00000000
(1664353635.830282) vcan0 0000014A#0000000000000000
(1664353635.844015) vcan0 000001F5#0000000000000000
(1664353635.846140) vcan0 000001E7#00000000
(1664353635.846148) vcan0 0000014A#0000000000000000
(1664353635.860952) vcan0 000001F5#0000000000000000
(1664353635.860968) vcan0 000001E7#00000000
(1664353635.860971) vcan0 0000014A#0000000000000000
(1664353635.877873) vcan0 000001F5#0000000000000000
(1664353635.877890) vcan0 000001E7#00000000
(1664353635.877892) vcan0 0000014A#0000000000000000
(1664353635.891611) vcan0 000001F5#0000000000000000
(1664353635.891625) vcan0 000001E7#00000000
(1664353635.891628) vcan0 0000014A#0000000000000000
(1664353635.909561) vcan0 000001F5#0000000000000000
(1664353635.909574) vcan0 000001E7#00000000
(1664353635.909576) vcan0 0000014A#0000000000000000
(1664353635.923301) vcan0 000001F5#0000000000000000
(1664353635.923312) vcan0 000001E7#00000000
(1664353635.926472) vcan0 0000014A#0000000000000000
(1664353635.940258) vcan0 000001F5#0000000000000000
(1664353635.940273) vcan0 000001E7#00000000
(1664353635.940275) vcan0 0000014A#0000000000000000
(1664353635.958257) vcan0 000001F5#0000000000000000
(1664353635.958272) vcan0 000001E7#00000000
(1664353635.958275) vcan0 0000014A#0000000000000000
(1664353635.972048) vcan0 000001F5#0000000000000000
(1664353635.972079) vcan0 000001E7#00000000
(1664353635.972081) vcan0 0000014A#0000000000000000
(1664353635.990084) vcan0 000001F5#0000000000000000
(1664353635.990116) vcan0 000001E7#00000000
(1664353635.990125) vcan0 0000014A#0000000000000000
(1664353636.003874) vcan0 000001F5#0000000000000000
(1664353636.003902) vcan0 000001E7#00000000
(1664353636.003907) vcan0 0000014A#0000000000000000
(1664353636.021956) vcan0 000001F5#0000000000000000
(1664353636.022012) vcan0 000001E7#00000000
(1664353636.022025) vcan0 0000014A#0000000000000000
(1664353636.035784) vcan0 000001F5#0000000000000000
(1664353636.035803) vcan0 000001E7#00000000
(1664353636.035805) vcan0 0000014A#0000000000000000
(1664353636.051715) vcan0 000001F5#0000000000000000
(1664353636.051739) vcan0 000001E7#00000000
(1664353636.051743) vcan0 0000014A#0000000000000000
(1664353636.068716) vcan0 000001F5#0000000000000000
(1664353636.068740) vcan0 000001E7#00000000
(1664353636.068743) vcan0 0000014A#0000000000000000
(1664353636.083568) vcan0 000001F5#0000000000000000
(1664353636.083589) vcan0 000001E7#00000000
(1664353636.084658) vcan0 0000014A#0000000000000000
(1664353636.098392) vcan0 000001F5#0000000000000000
(1664353636.098409) vcan0 000001E7#00000000
(1664353636.098417) vcan0 0000014A#0000000000000000
(1664353636.114268) vcan0 000001F5#0000000000000000
(1664353636.114294) vcan0 000001E7#00000000
(1664353636.114299) vcan0 0000014A#0000000000000000
(1664353636.133357) vcan0 000001F5#0000000000000000
(1664353636.133383) vcan0 000001E7#00000000
(1664353636.133388) vcan0 0000014A#0000000000000000
(1664353636.147184) vcan0 000001F5#0000000000000000
(1664353636.147206) vcan0 000001E7#00000000
(1664353636.147210) vcan0 0000014A#0000000000000000
(1664353636.164158) vcan0 000001F5#0000000000000000
(1664353636.164176) vcan0 000001E7#00000000
(1664353636.164179) vcan0 0000014A#0000000000000000
(1664353636.180108) vcan0 000001F5#0000000000000000
(1664353636.180131) vcan0 000001E7#00000000
(1664353636.180136) vcan0 0000014A#0000000000000000
(1664353636.198146) vcan0 000001F5#0000000000000000
(1664353636.198164) vcan0 000001E7#00000000
(1664353636.198168) vcan0 0000014A#0000000000000000
(1664353636.211908) vcan0 000001F5#0000000000000000
(1664353636.211927) vcan0 000001E7#00000000
(1664353636.211931) vcan0 0000014A#0000000000000000
(1664353636.226718) vcan0 000001F5#0000000000000000
(1664353636.226732) vcan0 000001E7#00000000
(1664353636.227789) vcan0 0000014A#0000000000000000
(1664353636.244667) vcan0 000001F5#0000000000000000
(1664353636.244688) vcan0 000001E7#00000000
(1664353636.244692) vcan0 0000014A#0000000000000000
(1664353636.258468) vcan0 000001F5#0000000000000000
(1664353636.258485) vcan0 000001E7#00000000
(1664353636.258487) vcan0 0000014A#0000000000000000
(1664353636.277482) vcan0 000001F5#0000000000000000
(1664353636.277501) vcan0 000001E7#00000000
(1664353636.277505) vcan0 0000014A#0000000000000000
(1664353636.291229) vcan0 000001F5#0000000000000000
(1664353636.291241) vcan0 000001E7#00000000
(1664353636.291243) vcan0 0000014A#0000000000000000
(1664353636.308112) vcan0 000001F5#0000000000000000
(1664353636.308124) vcan0 000001E7#00000000
(1664353636.308125) vcan0 0000014A#0000000000000000
(1664353636.322904) vcan0 000001F5#0000000000000000
(1664353636.322942) vcan0 000001E7#00000000
(1664353636.322950) vcan0 0000014A#0000000000000000
(1664353636.338883) vcan0 000001F5#0000000000000000
(1664353636.338915) vcan0 000001E7#00000000
(1664353636.338921) vcan0 0000014A#0000000000000000
(1664353636.355854) vcan0 000001F5#0000000000000000
(1664353636.355880) vcan0 000001E7#00000000
(1664353636.355884) vcan0 0000014A#0000000000000000
(1664353636.370644) vcan0 000001F5#0000000000000000
(1664353636.370661) vcan0 000001E7#00000000
(1664353636.370663) vcan0 0000014A#0000000000000000
(1664353636.388612) vcan0 000001F5#0000000000000000
(1664353636.388626) vcan0 000001E7#00000000
(1664353636.388629) vcan0 0000014A#0000000000000000
(1664353636.403363) vcan0 000001F5#0000000000000000
(1664353636.403382) vcan0 000001E7#00000000
(1664353636.403388) vcan0 0000014A#0000000000000000
(1664353636.420368) vcan0 000001F5#0000000000000000
(1664353636.420418) vcan0 000001E7#00000000
(1664353636.420428) vcan0 0000014A#0000000000000000
(1664353636.435254) vcan0 000001F5#0000000000000000
(1664353636.435272) vcan0 000001E7#00000000
(1664353636.435275) vcan0 0000014A#0000000000000000
(1664353636.451129) vcan0 000001F5#0000000000000000
(1664353636.451146) vcan0 000001E7#00000000
(1664353636.451149) vcan0 0000014A#0000000000000000
(1664353636.467001) vcan0 000001F5#0000000000000000
(1664353636.467016) vcan0 000001E7#00000000
(1664353636.468076) vcan0 0000014A#0000000000000000
(1664353636.482841) vcan0 000001F5#0000000000000000
(1664353636.482853) vcan0 000001E7#00000000
(1664353636.482855) vcan0 0000014A#0000000000000000
(1664353636.500764) vcan0 000001F5#0000000000000000
(1664353636.500778) vcan0 000001E7#00000000
(1664353636.500780) vcan0 0000014A#0000000000000000
(1664353636.514462) vcan0 000001F5#0000000000000000
(1664353636.515527) vcan0 000001E7#00000000
(1664353636.515530) vcan0 0000014A#0000000000000000
(1664353636.532349) vcan0 000001F5#0000000000000000
(1664353636.532364) vcan0 000001E7#00000000
(1664353636.532366) vcan0 0000014A#0000000000000000
(1664353636.553462) vcan0 000001F5#0000000000000000
(1664353636.553481) vcan0 000001E7#00000000
(1664353636.555591) vcan0 0000014A#0000000000000000
(1664353636.571409) vcan0 000001F5#0000000000000000
(1664353636.571424) vcan0 000001E7#00000000
(1664353636.572478) vcan0 0000014A#0000000000000000
(1664353636.580902) vcan0 000001F5#0000000000000000
(1664353636.580911) vcan0 000001E7#00000000
(1664353636.580913) vcan0 0000014A#0000000000000000
(1664353636.595664) vcan0 000001F5#0000000000000000
(1664353636.595678) vcan0 000001E7#00000000
(1664353636.595680) vcan0 0000014A#0000000000000000
(1664353636.612507) vcan0 000001F5#0000000000000000
(1664353636.612520) vcan0 000001E7#00000000
(1664353636.612522) vcan0 0000014A#0000000000000000
(1664353636.626246) vcan0 000001F5#0000000000000000
(1664353636.626260) vcan0 000001E7#00000000
(1664353636.627314) vcan0 0000014A#0000000000000000
(1664353636.644193) vcan0 000001F5#0000000000000000
(1664353636.644209) vcan0 000001E7#00000000
(1664353636.645264) vcan0 0000014A#0000000000000000
(1664353636.658958) vcan0 000001F5#0000000000000000
(1664353636.658971) vcan0 000001E7#00000000
(1664353636.658973) vcan0 0000014A#0000000000000000
(1664353636.675865) vcan0 000001F5#0000000000000000
(1664353636.675880) vcan0 000001E7#00000000
(1664353636.675883) vcan0 0000014A#0000000000000000
(1664353636.690687) vcan0 000001F5#0000000000000000
(1664353636.693859) vcan0 000001E7#00000000
(1664353636.693862) vcan0 0000014A#0000000000000000
(1664353636.709692) vcan0 000001F5#0000000000000000
(1664353636.709706) vcan0 000001E7#00000000
(1664353636.709708) vcan0 0000014A#0000000000000000
(1664353636.724474) vcan0 000001F5#0000000000000000
(1664353636.724488) vcan0 000001E7#00000000
(1664353636.724490) vcan0 0000014A#0000000000000000
(1664353636.739236) vcan0 000001F5#0000000000000000
(1664353636.739247) vcan0 000001E7#00000000
(1664353636.739249) vcan0 0000014A#0000000000000000
(1664353636.755040) vcan0 000001F5#0000000000000000
(1664353636.756107) vcan0 000001E7#00000000
(1664353636.756110) vcan0 0000014A#0000000000000000
(1664353636.770843) vcan0 000001F5#0000000000000000
(1664353636.770855) vcan0 000001E7#00000000
(1664353636.770857) vcan0 0000014A#0000000000000000
(1664353636.788737) vcan0 000001F5#0000000000000000
(1664353636.788749) vcan0 000001E7#00000000
(1664353636.788751) vcan0 0000014A#0000000000000000
(1664353636.802504) vcan0 000001F5#0000000000000000
(1664353636.802552) vcan0 000001E7#00000000
(1664353636.802561) vcan0 0000014A#0000000000000000
(1664353636.820533) vcan0 000001F5#0000000000000000
(1664353636.820567) vcan0 000001E7#00000000
(1664353636.820572) vcan0 0000014A#0000000000000000
(1664353636.835312) vcan0 000001F5#0000000000000000
(1664353636.835331) vcan0 000001E7#00000000
(1664353636.838531) vcan0 0000014A#0000000000000000
(1664353636.852269) vcan0 000001F5#0000000000000000
(1664353636.852317) vcan0 000001E7#00000000
(1664353636.852326) vcan0 0000014A#0000000000000000
(1664353636.870293) vcan0 000001F5#0000000000000000
(1664353636.870306) vcan0 000001E7#00000000
(1664353636.870308) vcan0 0000014A#0000000000000000
(1664353636.883977) vcan0 000001F5#0000000000000000
(1664353636.883995) vcan0 000001E7#00000000
(1664353636.883998) vcan0 0000014A#0000000000000000
(1664353636.901914) vcan0 000001F5#0000000000000000
(1664353636.901928) vcan0 000001E7#00000000
(1664353636.901930) vcan0 0000014A#0000000000000000
(1664353636.917738) vcan0 000001F5#0000000000000000
(1664353636.917753) vcan0 000001E7#00000000
(1664353636.917755) vcan0 0000014A#0000000000000000
(1664353636.931483) vcan0 000001F5#0000000000000000
(1664353636.931504) vcan0 000001E7#00000000
(1664353636.931507) vcan0 0000014A#0000000000000000
(1664353636.949456) vcan0 000001F5#0000000000000000
(1664353636.949476) vcan0 000001E7#00000000
(1664353636.949478) vcan0 0000014A#0000000000000000
(1664353636.965310) vcan0 000001F5#0000000000000000
(1664353636.965323) vcan0 000001E7#00000000
(1664353636.965325) vcan0 0000014A#0000000000000000
(1664353636.982202) vcan0 000001F5#0000000000000000
(1664353636.982215) vcan0 000001E7#00000000
(1664353636.982217) vcan0 0000014A#0000000000000000
(1664353636.995881) vcan0 000001F5#0000000000000000
(1664353636.995897) vcan0 000001E7#00000000
(1664353636.995898) vcan0 0000014A#0000000000000000
(1664353637.013769) vcan0 000001F5#0000000000000000
(1664353637.013783) vcan0 000001E7#00000000
(1664353637.013784) vcan0 0000014A#0000000000000000
(1664353637.029561) vcan0 000001F5#0000000000000000
(1664353637.029576) vcan0 000001E7#00000000
(1664353637.029579) vcan0 0000014A#0000000000000000
(1664353637.044343) vcan0 000001F5#0000000000000000
(1664353637.044358) vcan0 000001E7#00000000
(1664353637.044360) vcan0 0000014A#0000000000000000
(1664353637.062282) vcan0 000001F5#0000000000000000
(1664353637.062295) vcan0 000001E7#00000000
(1664353637.062298) vcan0 0000014A#0000000000000000
(1664353637.076150) vcan0 000001F5#0000000000000000
(1664353637.076163) vcan0 000001E7#00000000
(1664353637.076165) vcan0 0000014A#0000000000000000
(1664353637.092150) vcan0 000001F5#0000000000000000
(1664353637.092162) vcan0 000001E7#00000000
(1664353637.092163) vcan0 0000014A#0000000000000000
(1664353637.107967) vcan0 000001F5#0000000000000000
(1664353637.107978) vcan0 000001E7#00000000
(1664353637.107979) vcan0 0000014A#0000000000000000
(1664353637.122722) vcan0 000001F5#0000000000000000
(1664353637.122731) vcan0 000001E7#00000000
(1664353637.122732) vcan0 0000014A#0000000000000000
(1664353637.140650) vcan0 000001F5#0000000000000000
(1664353637.140660) vcan0 000001E7#00000000
(1664353637.140661) vcan0 0000014A#0000000000000000
(1664353637.155093) vcan0 000001F5#0000000000000000
(1664353637.155110) vcan0 000001E7#00000000
(1664353637.155112) vcan0 0000014A#0000000000000000
(1664353637.172034) vcan0 000001F5#0000000000000000
(1664353637.172047) vcan0 000001E7#00000000
(1664353637.172049) vcan0 0000014A#0000000000000000
(1664353637.186874) vcan0 000001F5#0000000000000000
(1664353637.186917) vcan0 000001E7#00000000
(1664353637.186925) vcan0 0000014A#0000000000000000
(1664353637.204890) vcan0 000001F5#0000000000000000
(1664353637.204907) vcan0 000001E7#00000000
(1664353637.204910) vcan0 0000014A#0000000000000000
(1664353637.218638) vcan0 000001F5#0000000000000000
(1664353637.218678) vcan0 000001E7#00000000
(1664353637.218685) vcan0 0000014A#0000000000000000
(1664353637.236614) vcan0 000001F5#0000000000000000
(1664353637.236627) vcan0 000001E7#00000000
(1664353637.236629) vcan0 0000014A#0000000000000000
(1664353637.250327) vcan0 000001F5#0000000000000000
(1664353637.250364) vcan0 000001E7#00000000
(1664353637.251432) vcan0 0000014A#0000000000000000
(1664353637.268308) vcan0 000001F5#0000000000000000
(1664353637.268333) vcan0 000001E7#00000000
(1664353637.268335) vcan0 0000014A#0000000000000000
(1664353637.283317) vcan0 000001F5#0000000000000000
(1664353637.283337) vcan0 000001E7#00000000
(1664353637.283339) vcan0 0000014A#0000000000000000
(1664353637.300236) vcan0 000001F5#0000000000000000
(1664353637.300254) vcan0 000001E7#00000000
(1664353637.300257) vcan0 0000014A#0000000000000000
(1664353637.315028) vcan0 000001F5#0000000000000000
(1664353637.315053) vcan0 000001E7#00000000
(1664353637.315056) vcan0 0000014A#0000000000000000
(1664353637.332930) vcan0 000001F5#0000000000000000
(1664353637.332945) vcan0 000001E7#00000000
(1664353637.332947) vcan0 0000014A#0000000000000000
(1664353637.346613) vcan0 000001F5#0000000000000000
(1664353637.346627) vcan0 000001E7#00000000
(1664353637.346629) vcan0 0000014A#0000000000000000
(1664353637.362459) vcan0 000001F5#0000000000000000
(1664353637.363529) vcan0 000001E7#00000000
(1664353637.363534) vcan0 0000014A#0000000000000000
(1664353637.380402) vcan0 000001F5#0000000000000000
(1664353637.380414) vcan0 000001E7#00000000
(1664353637.381479) vcan0 0000014A#0000000000000000
(1664353637.395191) vcan0 000001F5#0000000000000000
(1664353637.395202) vcan0 000001E7#00000000
(1664353637.395204) vcan0 0000014A#0000000000000000
(1664353637.412061) vcan0 000001F5#0000000000000000
(1664353637.413123) vcan0 000001E7#00000000
(1664353637.413127) vcan0 0000014A#0000000000000000
(1664353637.431062) vcan0 000001F5#0000000000000000
(1664353637.431077) vcan0 000001E7#00000000
(1664353637.431085) vcan0 0000014A#0000000000000000
(1664353637.442693) vcan0 000001F5#0000000000000000
(1664353637.442703) vcan0 000001E7#00000000
(1664353637.442704) vcan0 0000014A#0000000000000000
(1664353637.458639) vcan0 000001F5#0000000000000000
(1664353637.458651) vcan0 000001E7#00000000
(1664353637.458653) vcan0 0000014A#0000000000000000
(1664353637.474586) vcan0 000001F5#0000000000000000
(1664353637.474599) vcan0 000001E7#00000000
(1664353637.474601) vcan0 0000014A#0000000000000000
(1664353637.492552) vcan0 000001F5#0000000000000000
(1664353637.493669) vcan0 000001E7#00000000
(1664353637.493677) vcan0 0000014A#0000000000000000
(1664353637.509566) vcan0 000001F5#0000000000000000
(1664353637.509579) vcan0 000001E7#00000000
(1664353637.509581) vcan0 0000014A#0000000000000000
(1664353637.525488) vcan0 000001F5#0000000000000000
(1664353637.525512) vcan0 000001E7#00000000
(1664353637.525516) vcan0 0000014A#0000000000000000
(1664353637.540371) vcan0 000001F5#0000000000000000
(1664353637.540390) vcan0 000001E7#00000000
(1664353637.540393) vcan0 0000014A#0000000000000000
(1664353637.555266) vcan0 000001F5#0000000000000000
(1664353637.555301) vcan0 000001E7#00000000
(1664353637.555307) vcan0 0000014A#0000000000000000
(1664353637.573321) vcan0 000001F5#0000000000000000
(1664353637.573338) vcan0 000001E7#00000000
(1664353637.573341) vcan0 0000014A#0000000000000000
(1664353637.587107) vcan0 000001F5#0000000000000000
(1664353637.587159) vcan0 000001E7#00000000
(1664353637.587169) vcan0 0000014A#0000000000000000
(1664353637.605131) vcan0 000001F5#0000000000000000
(1664353637.605157) vcan0 000001E7#00000000
(1664353637.605160) vcan0 0000014A#0000000000000000
(1664353637.618846) vcan0 000001F5#0000000000000000
(1664353637.618867) vcan0 000001E7#00000000
(1664353637.618871) vcan0 0000014A#0000000000000000
(1664353637.635789) vcan0 000001F5#0000000000000000
(1664353637.635807) vcan0 000001E7#00000000
(1664353637.635810) vcan0 0000014A#0000000000000000
(1664353637.651639) vcan0 000001F5#0000000000000000
(1664353637.651654) vcan0 000001E7#00000000
(1664353637.652712) vcan0 0000014A#0000000000000000
(1664353637.668635) vcan0 000001F5#0000000000000000
(1664353637.668670) vcan0 000001E7#00000000
(1664353637.668676) vcan0 0000014A#0000000000000000
(1664353637.685823) vcan0 000001F5#0000000000000000
(1664353637.685846) vcan0 000001E7#00000000
(1664353637.685850) vcan0 0000014A#0000000000000000
(1664353637.698812) vcan0 000001F5#0000000000000000
(1664353637.698830) vcan0 000001E7#00000000
(1664353637.698835) vcan0 0000014A#0000000000000000
(1664353637.716815) vcan0 000001F5#0000000000000000
(1664353637.716833) vcan0 000001E7#00000000
(1664353637.716836) vcan0 0000014A#0000000000000000
(1664353637.730573) vcan0 000001F5#0000000000000000
(1664353637.730596) vcan0 000001E7#00000000
(1664353637.730600) vcan0 0000014A#0000000000000000
(1664353637.748590) vcan0 000001F5#0000000000000000
(1664353637.748613) vcan0 000001E7#00000000
(1664353637.748617) vcan0 0000014A#0000000000000000
(1664353637.764512) vcan0 000001F5#0000000000000000
(1664353637.764531) vcan0 000001E7#00000000
(1664353637.764535) vcan0 0000014A#0000000000000000
(1664353637.778266) vcan0 000001F5#0000000000000000
(1664353637.779342) vcan0 000001E7#00000000
(1664353637.779353) vcan0 0000014A#0000000000000000
(1664353637.796315) vcan0 000001F5#0000000000000000
(1664353637.796336) vcan0 000001E7#00000000
(1664353637.796341) vcan0 0000014A#0000000000000000
(1664353637.811114) vcan0 000001F5#0000000000000000
(1664353637.811128) vcan0 000001E7#00000000
(1664353637.811131) vcan0 0000014A#0000000000000000
(1664353637.828029) vcan0 000001F5#0000000000000000
(1664353637.828041) vcan0 000001E7#00000000
(1664353637.829096) vcan0 0000014A#0000000000000000
(1664353637.845109) vcan0 000001F5#0000000000000000
(1664353637.846176) vcan0 000001E7#00000000
(1664353637.846181) vcan0 0000014A#0000000000000000
(1664353637.859919) vcan0 000001F5#0000000000000000
(1664353637.859930) vcan0 000001E7#00000000
(1664353637.859932) vcan0 0000014A#0000000000000000
(1664353637.877903) vcan0 000001F5#0000000000000000
(1664353637.877921) vcan0 000001E7#00000000
(1664353637.877923) vcan0 0000014A#0000000000000000
(1664353637.893758) vcan0 000001F5#0000000000000000
(1664353637.893771) vcan0 000001E7#00000000
(1664353637.893773) vcan0 0000014A#0000000000000000
(1664353637.907470) vcan0 000001F5#0000000000000000
(1664353637.907481) vcan0 000001E7#00000000
(1664353637.907482) vcan0 0000014A#0000000000000000
(1664353637.924309) vcan0 000001F5#0000000000000000
(1664353637.925373) vcan0 000001E7#00000000
(1664353637.925377) vcan0 0000014A#0000000000000000
(1664353637.941216) vcan0 000001F5#0000000000000000
(1664353637.941229) vcan0 000001E7#00000000
(1664353637.941231) vcan0 0000014A#0000000000000000
(1664353637.957048) vcan0 000001F5#0000000000000000
(1664353637.957060) vcan0 000001E7#00000000
(1664353637.957062) vcan0 0000014A#0000000000000000
(1664353637.971836) vcan0 000001F5#0000000000000000
(1664353637.971847) vcan0 000001E7#00000000
(1664353637.971849) vcan0 0000014A#0000000000000000
(1664353637.979244) vcan0 00000000#0000000000000000
(1664353637.983470) vcan0 00000000#0000000000000000
(1664353637.988456) vcan0 000001F5#0000000000000000
(1664353637.988492) vcan0 000001E7#00000000
(1664353637.988502) vcan0 0000014A#0000000000000000
(1664353637.988719) vcan0 00000000#0000000000000000
(1664353637.993989) vcan0 00000000#0000000000000000
(1664353637.999261) vcan0 00000000#0000000000000000
(1664353638.004553) vcan0 00000000#0000000000000000
(1664353638.005457) vcan0 000001F5#0000000000000000
(1664353638.005466) vcan0 000001E7#00000000
(1664353638.005469) vcan0 0000014A#0000000000000000
(1664353638.009836) vcan0 00000000#0000000000000000
(1664353638.015107) vcan0 00000000#0000000000000000
(1664353638.019182) vcan0 000001F5#0000000000000000
(1664353638.019208) vcan0 000001E7#00000000
(1664353638.019338) vcan0 00000000#0000000000000000
(1664353638.020270) vcan0 0000014A#0000000000000000
(1664353638.024612) vcan0 00000000#0000000000000000
(1664353638.029886) vcan0 00000000#0000000000000000
(1664353638.035173) vcan0 00000000#0000000000000000
(1664353638.037165) vcan0 000001F5#0000000000000000
(1664353638.038250) vcan0 000001E7#00000000
(1664353638.038257) vcan0 0000014A#0000000000000000
(1664353638.040457) vcan0 00000000#0000000000000000
(1664353638.045734) vcan0 00000000#0000000000000000
(1664353638.051016) vcan0 00000000#0000000000000000
(1664353638.051967) vcan0 000001F5#0000000000000000
(1664353638.051986) vcan0 000001E7#00000000
(1664353638.051993) vcan0 0000014A#0000000000000000
(1664353638.055290) vcan0 00000000#0000000000000000
(1664353638.060601) vcan0 00000000#0000000000000000
(1664353638.065905) vcan0 00000000#0000000000000000
(1664353638.068943) vcan0 000001F5#0000000000000000
(1664353638.068984) vcan0 000001E7#00000000
(1664353638.069006) vcan0 0000014A#0000000000000000
(1664353638.071250) vcan0 00000000#0000000000000000
(1664353638.076581) vcan0 00000000#0000000000000000
(1664353638.080829) vcan0 00000000#0000000000000000
(1664353638.084904) vcan0 000001F5#0000000000000000
(1664353638.084920) vcan0 000001E7#00000000
(1664353638.084927) vcan0 0000014A#0000000000000000
(1664353638.086148) vcan0 00000000#0000000000000000
(1664353638.091514) vcan0 00000000#0000000000000000
(1664353638.096798) vcan0 00000000#0000000000000000
(1664353638.098697) vcan0 000001F5#0000000000000000
(1664353638.098712) vcan0 000001E7#00000000
(1664353638.098721) vcan0 0000014A#0000000000000000
(1664353638.102109) vcan0 00000000#0000000000000000
(1664353638.106396) vcan0 00000000#0000000000000000
(1664353638.111673) vcan0 00000000#0000000000000000
(1664353638.115601) vcan0 000001F5#0000000000000000
(1664353638.116673) vcan0 000001E7#00000000
(1664353638.116679) vcan0 0000014A#0000000000000000
(1664353638.117002) vcan0 00000000#0000000000000000
(1664353638.122345) vcan0 00000000#0000000000000000
(1664353638.127637) vcan0 00000000#0000000000000000
(1664353638.130439) vcan0 000001F5#0000000000000000
(1664353638.130450) vcan0 000001E7#00000000
(1664353638.130454) vcan0 0000014A#0000000000000000
(1664353638.131867) vcan0 00000000#0000000000000000
(1664353638.137155) vcan0 00000000#0000000000000000
(1664353638.142436) vcan0 00000000#0000000000000000
(1664353638.147715) vcan0 00000000#0000000000000000
(1664353638.148370) vcan0 000001F5#0000000000000000
(1664353638.148379) vcan0 000001E7#00000000
(1664353638.148382) vcan0 0000014A#0000000000000000
(1664353638.153007) vcan0 00000000#0000000000000000
(1664353638.158286) vcan0 00000000#0000000000000000
